(1689697981.704289) vcan0 18E#00004D
(1689697981.704297) vcan0 1CF#80050000000F
(1689697981.704304) vcan0 1DC#0200000C
(1689697981.704314) vcan0 183#0000000D0000100E
(1689697981.705553) vcan0 143#6B6B00C2
(1689697981.706879) vcan0 244#00000001EE
(1689697981.707215) vcan0 095#800007F800000031
(1689697981.708458) vcan0 1A4#000000080000002F
(1689697981.708496) vcan0 1AA#7FFF00000000682F
(1689697981.708502) vcan0 1B0#000F0000000166
(1689697981.708507) vcan0 1D0#000000000000000A
(1689697981.710172) vcan0 166#D0320009
(1689697981.711804) vcan0 158#000000000000000A
(1689697981.711907) vcan0 161#000005500108000D
(1689697981.711917) vcan0 191#010010A1410038
(1689697981.711926) vcan0 133#0000000098
(1689697981.713569) vcan0 136#000200000000001B
(1689697981.713635) vcan0 13A#0000000000000019
(1689697981.713640) vcan0 13F#000000050000001F
(1689697981.713644) vcan0 164#0000C01AA8000031
(1689697981.713650) vcan0 17C#0000000010000012
(1689697981.713654) vcan0 18E#00005C
(1689697981.715198) vcan0 183#0000000900001011
(1689697981.715260) vcan0 143#6B6B00D1
(1689697981.716863) vcan0 039#0039
(1689697981.718160) vcan0 244#000000015A
(1689697981.718828) vcan0 095#800007F400000008
(1689697981.720122) vcan0 166#D0320018
(1689697981.721932) vcan0 158#0000000000000019
(1689697981.722074) vcan0 161#000005500108001C
(1689697981.722083) vcan0 191#010010A141000B
(1689697981.722092) vcan0 164#0000C01AA8000004
(1689697981.722100) vcan0 133#00000000A7
(1689697981.724075) vcan0 136#000200000000002A
(1689697981.724337) vcan0 13A#0000000000000028
(1689697981.724367) vcan0 13F#000000050000002E
(1689697981.724395) vcan0 17C#0000000010000021
(1689697981.724423) vcan0 18E#00006B
(1689697981.724450) vcan0 1CF#80050000001E
(1689697981.724476) vcan0 1DC#0200001B
(1689697981.724508) vcan0 183#0000000E0000102B
(1689697981.726312) vcan0 143#6B6B00E0
(1689697981.728057) vcan0 095#800007F400000017
(1689697981.728148) vcan0 1A4#000000080000003E
(1689697981.728166) vcan0 1AA#7FFF00000000673F
(1689697981.729486) vcan0 244#00000001DF
(1689697981.729806) vcan0 1B0#000F0000000175
(1689697981.729863) vcan0 1D0#000000000000000A
(1689697981.729878) vcan0 166#D0320027
(1689697981.731110) vcan0 158#0000000000000028
(1689697981.733062) vcan0 161#000005500108002B
(1689697981.733146) vcan0 039#000C
(1689697981.733166) vcan0 191#010010A141001A
(1689697981.733170) vcan0 133#00000000B6
(1689697981.733174) vcan0 136#0002000000000039
(1689697981.733199) vcan0 13A#0000000000000037
(1689697981.733203) vcan0 13F#000000050000003D
(1689697981.733209) vcan0 164#0000C01AA8000013
(1689697981.733214) vcan0 17C#0000000010000030
(1689697981.733217) vcan0 18E#00007A
(1689697981.735042) vcan0 294#040B0002CF5A003B
(1689697981.735154) vcan0 21E#03E8374522063E
(1689697981.735165) vcan0 183#0000000A0000103E
(1689697981.737046) vcan0 143#6B6B00FF
(1689697981.737205) vcan0 095#800007F400000026
(1689697981.740451) vcan0 166#D0320036
(1689697981.740476) vcan0 244#0000000192
(1689697981.742268) vcan0 158#0000000000000037
(1689697981.742374) vcan0 161#000005500108003A
(1689697981.742391) vcan0 191#010010A1410029
(1689697981.742409) vcan0 164#0000C01AA8000022
(1689697981.742426) vcan0 133#0000000089
(1689697981.742440) vcan0 136#000200000000000C
(1689697981.744081) vcan0 13A#000000000000000A
(1689697981.744164) vcan0 13F#0000000500000000
(1689697981.744181) vcan0 17C#0000000010000003
(1689697981.744195) vcan0 18E#00004D
(1689697981.744210) vcan0 1CF#80050000002D
(1689697981.744224) vcan0 1DC#0200002A
(1689697981.744238) vcan0 183#0000000700001004
(1689697981.746037) vcan0 143#6B6B00C2
(1689697981.746108) vcan0 333#0000000000003C
(1689697981.748165) vcan0 095#800007F400000035
(1689697981.748262) vcan0 1A4#0000000800000001
(1689697981.748270) vcan0 1AA#7FFF000000006801
(1689697981.748279) vcan0 1B0#000F0000000148
(1689697981.749770) vcan0 1D0#000000000000000A
(1689697981.749844) vcan0 166#D0320009
(1689697981.751950) vcan0 244#00000001E4
(1689697981.751969) vcan0 039#001B
(1689697981.752081) vcan0 158#000000000000000A
(1689697981.752090) vcan0 161#000005500108000D
(1689697981.752097) vcan0 191#010010A1410038
(1689697981.752103) vcan0 133#0000000098
(1689697981.752121) vcan0 136#000200000000001B
(1689697981.753583) vcan0 13A#0000000000000019
(1689697981.753714) vcan0 13F#000000050000001F
(1689697981.753736) vcan0 164#0000C01AA8000031
(1689697981.753742) vcan0 17C#0000000010000012
(1689697981.753747) vcan0 18E#00005C
(1689697981.755698) vcan0 183#0000000D0000101D
(1689697981.755766) vcan0 143#6B6B00D1
(1689697981.757175) vcan0 095#800007F800000004
(1689697981.760386) vcan0 166#D0320018
(1689697981.761833) vcan0 158#0000000000000019
(1689697981.761996) vcan0 161#000005500108001C
(1689697981.762024) vcan0 191#010010A141000B
(1689697981.762044) vcan0 164#0000C01AA8000004
(1689697981.762048) vcan0 133#00000000A7
(1689697981.763163) vcan0 244#0000000116
(1689697981.763481) vcan0 136#000200000000002A
(1689697981.763550) vcan0 13A#0000000000000028
(1689697981.763597) vcan0 13F#000000050000002E
(1689697981.763601) vcan0 17C#0000000010000021
(1689697981.763605) vcan0 18E#00006B
(1689697981.763609) vcan0 1CF#80050000003C
(1689697981.763615) vcan0 1DC#02000039
(1689697981.764946) vcan0 320#000030
(1689697981.764998) vcan0 324#7465000000000E38
(1689697981.765005) vcan0 183#0000000900001020
(1689697981.765010) vcan0 37C#FD00FD00097F0038
(1689697981.765016) vcan0 039#002A
(1689697981.765020) vcan0 40C#0000000004000013
(1689697981.765024) vcan0 454#23EF18
(1689697981.766858) vcan0 143#6B6B00E0
(1689697981.768943) vcan0 095#800007F800000013
(1689697981.769068) vcan0 1A4#0000000800000010
(1689697981.769076) vcan0 1AA#7FFF000000006810
(1689697981.769086) vcan0 1B0#000F0000000157
(1689697981.769093) vcan0 1D0#000000000000000A
(1689697981.770940) vcan0 166#D0320027
(1689697981.771072) vcan0 158#0000000000000028
(1689697981.772967) vcan0 161#000005500108002B
(1689697981.773079) vcan0 191#010010A141001A
(1689697981.773088) vcan0 133#00000000B6
(1689697981.773098) vcan0 136#0002000000000039
(1689697981.773104) vcan0 13A#0000000000000037
(1689697981.773111) vcan0 13F#000000050000003D
(1689697981.773119) vcan0 164#0000C01AA8000013
(1689697981.773126) vcan0 17C#0000000010000030
(1689697981.774538) vcan0 244#0000000194
(1689697981.774589) vcan0 18E#00007A
(1689697981.774615) vcan0 294#040B0002CF5A000E
(1689697981.774625) vcan0 21E#03E83745220601
(1689697981.774634) vcan0 183#0000000600001032
(1689697981.776617) vcan0 143#6B6B00FF
(1689697981.778117) vcan0 095#800007F800000022
(1689697981.778191) vcan0 039#0039
(1689697981.780303) vcan0 305#8008
(1689697981.780354) vcan0 166#D0320036
(1689697981.782106) vcan0 158#0000000000000037
(1689697981.782173) vcan0 161#000005500108003A
(1689697981.782177) vcan0 191#010010A1410029
(1689697981.782182) vcan0 164#0000C01AA8000022
(1689697981.782186) vcan0 133#0000000089
(1689697981.782191) vcan0 136#000200000000000C
(1689697981.784317) vcan0 13A#000000000000000A
(1689697981.784453) vcan0 13F#0000000500000000
(1689697981.784462) vcan0 17C#0000000010000003
(1689697981.784471) vcan0 18E#00004D
(1689697981.784479) vcan0 1CF#80050000000F
(1689697981.784486) vcan0 1DC#0200000C
(1689697981.784494) vcan0 183#0000000C0000100F
(1689697981.786010) vcan0 143#6B6B00C2
(1689697981.786038) vcan0 244#00000001A4
(1689697981.787666) vcan0 095#800007F800000031
(1689697981.787761) vcan0 1A4#000000080000002F
(1689697981.788933) vcan0 1AA#7FFF00000000682F
(1689697981.789013) vcan0 1B0#000F0000000166
(1689697981.789035) vcan0 1D0#000000000000000A
(1689697981.790499) vcan0 166#D0320009
(1689697981.792237) vcan0 158#000000000000000A
(1689697981.792333) vcan0 161#000005500108000D
(1689697981.792341) vcan0 191#010010A1410038
(1689697981.792350) vcan0 164#0000C01AA8000031
(1689697981.792359) vcan0 133#0000000098
(1689697981.792366) vcan0 136#000200000000001B
(1689697981.793651) vcan0 039#000C
(1689697981.793718) vcan0 13A#0000000000000019
(1689697981.793723) vcan0 13F#000000050000001F
(1689697981.793727) vcan0 17C#0000000010000012
(1689697981.793731) vcan0 18E#00005C
(1689697981.793735) vcan0 309#0000000000000084
(1689697981.795647) vcan0 428#01040000521C2F
(1689697981.795726) vcan0 405#0000040000000029
(1689697981.795731) vcan0 183#0000000900001011
(1689697981.795736) vcan0 143#6B6B00D1
(1689697981.797653) vcan0 095#800007F800000004
(1689697981.797660) vcan0 244#000000011A
(1689697981.800905) vcan0 166#D0320018
(1689697981.801058) vcan0 158#0000000000000019
(1689697981.803121) vcan0 161#000005500108001C
(1689697981.803180) vcan0 191#010010A141000B
(1689697981.803193) vcan0 164#0000C01AA8000004
(1689697981.803212) vcan0 133#00000000A7
(1689697981.803216) vcan0 136#000200000000002A
(1689697981.803221) vcan0 13A#0000000000000028
(1689697981.803226) vcan0 13F#000000050000002E
(1689697981.803229) vcan0 17C#0000000010000021
(1689697981.803233) vcan0 18E#00006B
(1689697981.803237) vcan0 1CF#80050000001E
(1689697981.805248) vcan0 1DC#0200001B
(1689697981.805311) vcan0 183#0000000E0000102B
(1689697981.805316) vcan0 143#6B6B00E0
(1689697981.808161) vcan0 095#800007F800000013
(1689697981.808212) vcan0 039#001B
(1689697981.808216) vcan0 1A4#000000080000003E
(1689697981.808220) vcan0 1AA#7FFF00000000673F
(1689697981.809027) vcan0 244#00000001A3
(1689697981.809434) vcan0 1B0#000F0000000175
(1689697981.809528) vcan0 1D0#000000000000000A
(1689697981.811038) vcan0 166#D0320027
(1689697981.811192) vcan0 158#0000000000000028
(1689697981.812416) vcan0 161#000005500108002B
(1689697981.812514) vcan0 191#010010A141001A
(1689697981.812530) vcan0 164#0000C01AA8000013
(1689697981.812545) vcan0 133#00000000B6
(1689697981.812560) vcan0 136#0002000000000039
(1689697981.812574) vcan0 13A#0000000000000037
(1689697981.814059) vcan0 13F#000000050000003D
(1689697981.814160) vcan0 17C#0000000010000030
(1689697981.814190) vcan0 18E#00007A
(1689697981.814206) vcan0 294#040B0002CF5A001D
(1689697981.814220) vcan0 21E#03E83745220610
(1689697981.815504) vcan0 183#0000000A0000103E
(1689697981.815580) vcan0 143#6B6B00FF
(1689697981.818981) vcan0 095#800007F400000026
(1689697981.820757) vcan0 244#00000001F2
(1689697981.820869) vcan0 166#D0320036
(1689697981.822689) vcan0 158#0000000000000037
(1689697981.822804) vcan0 161#000005500108003A
(1689697981.822834) vcan0 039#002A
(1689697981.822861) vcan0 191#010010A1410029
(1689697981.822892) vcan0 164#0000C01AA8000022
(1689697981.823136) vcan0 133#0000000089
(1689697981.823212) vcan0 136#000200000000000C
(1689697981.823241) vcan0 13A#000000000000000A
(1689697981.823270) vcan0 13F#0000000500000000
(1689697981.823339) vcan0 17C#0000000010000003
(1689697981.823367) vcan0 18E#00004D
(1689697981.823388) vcan0 1CF#80050000002D
(1689697981.825238) vcan0 1DC#0200002A
(1689697981.825289) vcan0 183#0000000F0000100C
(1689697981.825306) vcan0 143#6B6B00C2
(1689697981.827294) vcan0 095#800007F400000035
(1689697981.828674) vcan0 1A4#0000000800000001
(1689697981.828831) vcan0 1AA#7FFF000000006801
(1689697981.828863) vcan0 1B0#000F0000000148
(1689697981.828918) vcan0 1D0#000000000000000A
(1689697981.831062) vcan0 166#D0320009
(1689697981.831136) vcan0 158#000000000000000A
(1689697981.832538) vcan0 161#000005500108000D
(1689697981.832537) vcan0 244#0000000143
(1689697981.832610) vcan0 191#010010A1410038
(1689697981.832615) vcan0 164#0000C01AA8000031
(1689697981.832619) vcan0 133#0000000098
(1689697981.832623) vcan0 136#000200000000001B
(1689697981.832628) vcan0 13A#0000000000000019
(1689697981.834165) vcan0 13F#000000050000001F
(1689697981.834231) vcan0 17C#0000000010000012
(1689697981.834247) vcan0 18E#00005C
(1689697981.836327) vcan0 183#0000000B0000101F
(1689697981.836445) vcan0 143#6B6B00D1
(1689697981.836461) vcan0 039#0039
(1689697981.838123) vcan0 095#800007F400000008
(1689697981.841009) vcan0 166#D0320018
(1689697981.841115) vcan0 158#0000000000000019
(1689697981.842719) vcan0 161#000005500108001C
(1689697981.842794) vcan0 191#010010A141000B
(1689697981.842799) vcan0 164#0000C01AA8000004
(1689697981.842805) vcan0 133#00000000A7
(1689697981.842809) vcan0 136#000200000000002A
(1689697981.842818) vcan0 13A#0000000000000028
(1689697981.842822) vcan0 13F#000000050000002E
(1689697981.843740) vcan0 244#00000001D5
(1689697981.844349) vcan0 17C#0000000010000021
(1689697981.844376) vcan0 18E#00006B
(1689697981.844384) vcan0 1CF#80050000003C
(1689697981.844393) vcan0 1DC#02000039
(1689697981.844401) vcan0 183#0000000800001021
(1689697981.845694) vcan0 143#6B6B00E0
(1689697981.845792) vcan0 333#0000000000000F
(1689697981.847187) vcan0 095#800007F400000017
(1689697981.849413) vcan0 1A4#0000000800000010
(1689697981.849459) vcan0 1AA#7FFF000000006810
(1689697981.849467) vcan0 1B0#000F0000000157
(1689697981.849474) vcan0 1D0#000000000000000A
(1689697981.851204) vcan0 166#D0320027
(1689697981.851275) vcan0 039#000C
(1689697981.851280) vcan0 158#0000000000000028
(1689697981.851284) vcan0 161#000005500108002B
(1689697981.853392) vcan0 191#010010A141001A
(1689697981.853477) vcan0 133#00000000B6
(1689697981.853483) vcan0 136#0002000000000039
(1689697981.853490) vcan0 13A#0000000000000037
(1689697981.853497) vcan0 13F#000000050000003D
(1689697981.853501) vcan0 164#0000C01AA8000013
(1689697981.853505) vcan0 17C#0000000010000030
(1689697981.853509) vcan0 18E#00007A
(1689697981.853513) vcan0 294#040B0002CF5A002C
(1689697981.855159) vcan0 244#000000014C
(1689697981.855295) vcan0 21E#03E8374522062F
(1689697981.855313) vcan0 183#0000000600001032
(1689697981.855322) vcan0 143#6B6B00FF
(1689697981.858461) vcan0 095#800007F400000026
(1689697981.860766) vcan0 166#D0320036
(1689697981.862172) vcan0 158#0000000000000037
(1689697981.862233) vcan0 161#000005500108003A
(1689697981.862244) vcan0 191#010010A1410029
(1689697981.862252) vcan0 164#0000C01AA8000022
(1689697981.862260) vcan0 133#0000000089
(1689697981.862270) vcan0 136#000200000000000C
(1689697981.864168) vcan0 13A#000000000000000A
(1689697981.864238) vcan0 13F#0000000500000000
(1689697981.864248) vcan0 17C#0000000010000003
(1689697981.864256) vcan0 18E#00004D
(1689697981.864262) vcan0 1CF#80050000000F
(1689697981.864272) vcan0 1DC#0200000C
(1689697981.864278) vcan0 320#000003
(1689697981.864285) vcan0 324#7465000000000E0B
(1689697981.864293) vcan0 183#0000000400001007
(1689697981.865972) vcan0 37C#FD00FD00097F000B
(1689697981.866035) vcan0 143#6B6B00C2
(1689697981.866275) vcan0 244#000000016F
(1689697981.867723) vcan0 095#800007F400000035
(1689697981.867766) vcan0 1A4#000000080000002F
(1689697981.869736) vcan0 1AA#7FFF00000000682F
(1689697981.869798) vcan0 1B0#000F0000000166
(1689697981.869804) vcan0 1D0#000000000000000A
(1689697981.869809) vcan0 039#001B
(1689697981.869813) vcan0 166#D0320009
(1689697981.871201) vcan0 158#000000000000000A
(1689697981.871261) vcan0 161#000005500108000D
(1689697981.872717) vcan0 191#010010A1410038
(1689697981.872779) vcan0 133#0000000098
(1689697981.872786) vcan0 136#000200000000001B
(1689697981.872790) vcan0 13A#0000000000000019
(1689697981.872795) vcan0 13F#000000050000001F
(1689697981.872799) vcan0 164#0000C01AA8000031
(1689697981.875183) vcan0 17C#0000000010000012
(1689697981.875286) vcan0 18E#00005C
(1689697981.875295) vcan0 183#0000000300001017
(1689697981.875304) vcan0 143#6B6B00D1
(1689697981.877281) vcan0 244#00000001B5
(1689697981.877297) vcan0 095#800007F400000008
(1689697981.880462) vcan0 166#D0320018
(1689697981.882377) vcan0 158#0000000000000019
(1689697981.882510) vcan0 188#01
(1689697981.882520) vcan0 191#010010A141000B
(1689697981.882530) vcan0 164#0000C01AA8000004
(1689697981.882543) vcan0 133#00000000A7
(1689697981.882552) vcan0 136#000200000000002A
(1689697981.882560) vcan0 13A#0000000000000028
(1689697981.884024) vcan0 13F#000000050000002E
(1689697981.884146) vcan0 17C#0000000010000021
(1689697981.884154) vcan0 18E#00006B
(1689697981.884163) vcan0 1CF#80050000001E
(1689697981.884171) vcan0 039#002A
(1689697981.884178) vcan0 1DC#0200001B
(1689697981.884187) vcan0 183#0000000A0000102F
(1689697981.884193) vcan0 305#8017
(1689697981.886259) vcan0 143#6B6B00E0
(1689697981.888360) vcan0 095#800007F400000017
(1689697981.888436) vcan0 1A4#000000080000003E
(1689697981.888442) vcan0 1AA#7FFF00000000673F
(1689697981.888447) vcan0 1B0#000F0000000175
(1689697981.888514) vcan0 244#000000018F
(1689697981.889710) vcan0 1D0#000000000000000A
(1689697981.889744) vcan0 166#D0320027
(1689697981.891740) vcan0 158#0000000000000028
(1689697981.891782) vcan0 161#000005500108002B
(1689697981.891787) vcan0 191#010010A141001A
(1689697981.893226) vcan0 164#0000C01AA8000013
(1689697981.893278) vcan0 133#00000000B6
(1689697981.893285) vcan0 136#0002000000000039
(1689697981.893289) vcan0 13A#0000000000000037
(1689697981.893293) vcan0 13F#000000050000003D
(1689697981.893303) vcan0 17C#0000000010000030
(1689697981.893307) vcan0 18E#00007A
(1689697981.894564) vcan0 294#040B0002CF5A003B
(1689697981.894624) vcan0 21E#03E8374522063E
(1689697981.894640) vcan0 309#0000000000000093
(1689697981.894655) vcan0 183#0000000700001031
(1689697981.897240) vcan0 143#6B6B00FF
(1689697981.897349) vcan0 095#800007F400000026
(1689697981.897402) vcan0 039#0039
(1689697981.900302) vcan0 244#000000015C
(1689697981.900654) vcan0 166#D0320036
(1689697981.902827) vcan0 158#0000000000000037
(1689697981.902907) vcan0 161#000005500108003A
(1689697981.902912) vcan0 191#010010A1410029
(1689697981.902918) vcan0 164#0000C01AA8000022
(1689697981.902930) vcan0 133#0000000089
(1689697981.902935) vcan0 136#000200000000000C
(1689697981.902940) vcan0 13A#000000000000000A
(1689697981.902944) vcan0 13F#0000000500000000
(1689697981.902948) vcan0 17C#0000000010000003
(1689697981.904257) vcan0 18E#00004D
(1689697981.904327) vcan0 1CF#80050000002D
(1689697981.904331) vcan0 1DC#0200002A
(1689697981.904335) vcan0 183#0000000D0000100E
(1689697981.905841) vcan0 143#6B6B00C2
(1689697981.907862) vcan0 095#800007F400000035
(1689697981.907939) vcan0 1A4#0000000800000001
(1689697981.909745) vcan0 1AA#7FFF000000006801
(1689697981.909866) vcan0 1B0#000F0000000148
(1689697981.909874) vcan0 1D0#000000000000000A
(1689697981.909881) vcan0 166#D0320009
(1689697981.912119) vcan0 158#000000000000000A
(1689697981.912238) vcan0 161#000005500108000D
(1689697981.912246) vcan0 191#010010A1410038
(1689697981.912253) vcan0 039#000C
(1689697981.912259) vcan0 133#0000000098
(1689697981.912268) vcan0 136#000200000000001B
(1689697981.912275) vcan0 13A#0000000000000019
(1689697981.912485) vcan0 244#0000000100
(1689697981.913736) vcan0 13F#000000050000001F
(1689697981.913781) vcan0 164#0000C01AA8000031
(1689697981.913786) vcan0 17C#0000000010000012
(1689697981.913791) vcan0 18E#00005C
(1689697981.915001) vcan0 183#0000001100001018
(1689697981.917273) vcan0 143#6B6B00D1
(1689697981.917326) vcan0 095#800007F400000008
(1689697981.920186) vcan0 166#D0320018
(1689697981.922098) vcan0 158#0000000000000019
(1689697981.922228) vcan0 161#000005500108001C
(1689697981.922273) vcan0 191#010010A141000B
(1689697981.922315) vcan0 164#0000C01AA8000004
(1689697981.922354) vcan0 133#00000000A7
(1689697981.922483) vcan0 136#000200000000002A
(1689697981.922563) vcan0 13A#0000000000000028
(1689697981.924564) vcan0 13F#000000050000002E
(1689697981.924626) vcan0 17C#0000000010000021
(1689697981.924651) vcan0 18E#00006B
(1689697981.924671) vcan0 1CF#80050000003C
(1689697981.924692) vcan0 1DC#02000039
(1689697981.924741) vcan0 244#00000001F5
(1689697981.924763) vcan0 183#0000000C0000102D
(1689697981.926442) vcan0 039#001B
(1689697981.926524) vcan0 143#6B6B00E0
(1689697981.928033) vcan0 095#800007F400000017
(1689697981.928120) vcan0 1A4#0000000800000010
(1689697981.928146) vcan0 1AA#7FFF000000006810
(1689697981.930109) vcan0 1B0#000F0000000157
(1689697981.930232) vcan0 1D0#000000000000000A
(1689697981.930254) vcan0 166#D0320027
(1689697981.932450) vcan0 158#0000000000000028
(1689697981.932588) vcan0 161#000005500108002B
(1689697981.932617) vcan0 191#010010A141001A
(1689697981.932645) vcan0 164#0000C01AA8000013
(1689697981.932665) vcan0 133#00000000B6
(1689697981.932713) vcan0 136#0002000000000039
(1689697981.932728) vcan0 13A#0000000000000037
(1689697981.932742) vcan0 13F#000000050000003D
(1689697981.934776) vcan0 17C#0000000010000030
(1689697981.934964) vcan0 18E#00007A
(1689697981.935011) vcan0 294#040B0002CF5A000E
(1689697981.935082) vcan0 21E#03E83745220601
(1689697981.935275) vcan0 183#000000090000103F
(1689697981.935375) vcan0 143#6B6B00FF
(1689697981.935629) vcan0 244#000000010F
(1689697981.938652) vcan0 095#800007F400000026
(1689697981.940099) vcan0 039#002A
(1689697981.940149) vcan0 166#D0320036
(1689697981.940901) vcan0 188#00000000
(1689697981.941475) vcan0 158#0000000000000037
(1689697981.941558) vcan0 161#000005500108003A
(1689697981.941567) vcan0 191#010010A1410029
(1689697981.942744) vcan0 164#0000C01AA8000022
(1689697981.942808) vcan0 133#0000000089
(1689697981.942813) vcan0 136#000200000000000C
(1689697981.942819) vcan0 13A#000000000000000A
(1689697981.942822) vcan0 13F#0000000500000000
(1689697981.944197) vcan0 17C#0000000010000003
(1689697981.944251) vcan0 18E#00004D
(1689697981.944267) vcan0 1CF#80050000000F
(1689697981.944281) vcan0 1DC#0200000C
(1689697981.944296) vcan0 183#0000000600001005
(1689697981.945640) vcan0 143#6B6B00C2
(1689697981.945847) vcan0 333#0000000000001E
(1689697981.946662) vcan0 244#0000000155
(1689697981.947582) vcan0 095#800007F400000035
(1689697981.948784) vcan0 1A4#000000080000002F
(1689697981.948837) vcan0 1AA#7FFF00000000682F
(1689697981.948843) vcan0 1B0#000F0000000166
(1689697981.948849) vcan0 1D0#000000000000000A
(1689697981.950768) vcan0 166#D0320009
(1689697981.952731) vcan0 158#000000000000000A
(1689697981.952812) vcan0 161#000005500108000D
(1689697981.952821) vcan0 191#010010A1410038
(1689697981.952832) vcan0 133#0000000098
(1689697981.952852) vcan0 136#000200000000001B
(1689697981.952861) vcan0 13A#0000000000000019
(1689697981.952868) vcan0 13F#000000050000001F
(1689697981.952876) vcan0 164#0000C01AA8000031
(1689697981.954561) vcan0 17C#0000000010000012
(1689697981.954659) vcan0 18E#00005C
(1689697981.954670) vcan0 039#0039
(1689697981.954676) vcan0 183#0000000C0000101E
(1689697981.955982) vcan0 143#6B6B00D1
(1689697981.957338) vcan0 095#800007F400000008
(1689697981.957981) vcan0 244#0000000190
(1689697981.960778) vcan0 166#D0320018
